Title: * simple rc low-pass filter
Date: Sat Jun 13 22:31:01  2026
Command: ngspice-46, Build Wed May 13 18:50:08 UTC 2026
Plotname: Transient Analysis
Flags: real
No. Variables: 3
No. Points: 5209
Variables:
	0	time	time
	1	v(in)	voltage
	2	v(out)	voltage
Values:
 0	0.000000000000000e+00
	0.000000000000000e+00
	0.000000000000000e+00

 1	1.000000000000000e-11
	1.000000000000000e-02
	9.999900000999992e-08

 2	2.000000000000000e-11
	2.000000000000000e-02
	2.999960000499994e-07

 3	4.000000000000000e-11
	4.000000000000000e-02
	8.999840002499966e-07

 4	8.000000000000001e-11
	8.000000000000000e-02
	3.299900002569941e-06

 5	1.600000000000000e-10
	1.600000000000000e-01
	1.289925203648838e-05

 6	3.200000000000000e-10
	3.200000000000000e-01
	5.129411656700011e-05

 7	6.400000000000001e-10
	6.400000000000000e-01
	2.048531330070683e-04

 8	1.000000000000000e-09
	1.000000000000000e+00
	4.999262727140385e-04

 9	1.064000000000000e-09
	1.000000000000000e+00
	5.638901837422789e-04

 10	1.192000000000000e-09
	1.000000000000000e+00
	6.918098189421074e-04

 11	1.448000000000000e-09
	1.000000000000000e+00
	9.475999744885489e-04

 12	1.960000000000000e-09
	1.000000000000000e+00
	1.458983889019492e-03

 13	2.984000000000000e-09
	1.000000000000000e+00
	2.480966634351527e-03

 14	5.032000000000000e-09
	1.000000000000000e+00
	4.521795805613004e-03

 15	9.128000000000001e-09
	1.000000000000000e+00
	8.590940920797317e-03

 16	1.732000000000000e-08
	1.000000000000000e+00
	1.667943346730365e-02

 17	3.370400000000001e-08
	1.000000000000000e+00
	3.265925096443882e-02

 18	6.647200000000001e-08
	1.000000000000000e+00
	6.384610717665516e-02

 19	1.320080000000000e-07
	1.000000000000000e+00
	1.232512993592855e-01

 20	2.630800000000001e-07
	1.000000000000000e+00
	2.311004998465330e-01

 21	5.252240000000001e-07
	1.000000000000000e+00
	4.093052388624670e-01

 22	1.049512000000000e-06
	1.000000000000000e+00
	6.546767455425883e-01

 23	2.049512000000000e-06
	1.000000000000000e+00
	8.848922485141962e-01

 24	3.049512000000000e-06
	1.000000000000000e+00
	9.616307495047320e-01

 25	4.049511999999999e-06
	1.000000000000000e+00
	9.872102498349108e-01

 26	5.049511999999999e-06
	1.000000000000000e+00
	9.957367499449703e-01

 27	6.049511999999999e-06
	1.000000000000000e+00
	9.985789166483233e-01

 28	7.049511999999999e-06
	1.000000000000000e+00
	9.995263055494411e-01

 29	8.049511999999999e-06
	1.000000000000000e+00
	9.998421018498137e-01

 30	9.049512000000000e-06
	1.000000000000000e+00
	9.999473672832713e-01

 31	1.004951200000000e-05
	1.000000000000000e+00
	9.999824557610905e-01

 32	1.104951200000000e-05
	1.000000000000000e+00
	9.999941519203633e-01

 33	1.204951200000000e-05
	1.000000000000000e+00
	9.999980506401210e-01

 34	1.304951200000000e-05
	1.000000000000000e+00
	9.999993502133737e-01

 35	1.404951200000000e-05
	1.000000000000000e+00
	9.999997834044579e-01

 36	1.504951200000000e-05
	1.000000000000000e+00
	9.999999278014858e-01

 37	1.604951200000000e-05
	1.000000000000000e+00
	9.999999759338285e-01

 38	1.704951200000000e-05
	1.000000000000000e+00
	9.999999919779430e-01

 39	1.804951200000000e-05
	1.000000000000000e+00
	9.999999973259810e-01

 40	1.904951200000000e-05
	1.000000000000000e+00
	9.999999991086604e-01

 41	2.004951200000000e-05
	1.000000000000000e+00
	9.999999997028868e-01

 42	2.104951200000001e-05
	1.000000000000000e+00
	9.999999999009624e-01

 43	2.204951200000001e-05
	1.000000000000000e+00
	9.999999999669876e-01

 44	2.304951200000001e-05
	1.000000000000000e+00
	9.999999999889960e-01

 45	2.404951200000001e-05
	1.000000000000000e+00
	9.999999999963320e-01

 46	2.504951200000001e-05
	1.000000000000000e+00
	9.999999999987773e-01

 47	2.604951200000001e-05
	1.000000000000000e+00
	9.999999999995923e-01

 48	2.704951200000001e-05
	1.000000000000000e+00
	9.999999999998642e-01

 49	2.804951200000001e-05
	1.000000000000000e+00
	9.999999999999547e-01

 50	2.904951200000001e-05
	1.000000000000000e+00
	9.999999999999849e-01

 51	3.004951200000001e-05
	1.000000000000000e+00
	9.999999999999949e-01

 52	3.104951200000001e-05
	1.000000000000000e+00
	9.999999999999982e-01

 53	3.204951200000000e-05
	1.000000000000000e+00
	9.999999999999993e-01

 54	3.304951200000000e-05
	1.000000000000000e+00
	9.999999999999998e-01

 55	3.404951200000000e-05
	1.000000000000000e+00
	9.999999999999998e-01

 56	3.504951200000000e-05
	1.000000000000000e+00
	9.999999999999998e-01

 57	3.604951199999999e-05
	1.000000000000000e+00
	9.999999999999998e-01

 58	3.704951199999999e-05
	1.000000000000000e+00
	9.999999999999998e-01

 59	3.804951199999999e-05
	1.000000000000000e+00
	9.999999999999998e-01

 60	3.904951199999999e-05
	1.000000000000000e+00
	9.999999999999998e-01

 61	4.004951199999998e-05
	1.000000000000000e+00
	9.999999999999998e-01

 62	4.104951199999998e-05
	1.000000000000000e+00
	9.999999999999998e-01

 63	4.204951199999998e-05
	1.000000000000000e+00
	9.999999999999998e-01

 64	4.304951199999997e-05
	1.000000000000000e+00
	9.999999999999998e-01

 65	4.404951199999997e-05
	1.000000000000000e+00
	9.999999999999998e-01

 66	4.504951199999997e-05
	1.000000000000000e+00
	9.999999999999998e-01

 67	4.604951199999997e-05
	1.000000000000000e+00
	9.999999999999998e-01

 68	4.704951199999996e-05
	1.000000000000000e+00
	9.999999999999998e-01

 69	4.804951199999996e-05
	1.000000000000000e+00
	9.999999999999998e-01

 70	4.904951199999996e-05
	1.000000000000000e+00
	9.999999999999998e-01

 71	5.004951199999995e-05
	1.000000000000000e+00
	9.999999999999998e-01

 72	5.104951199999995e-05
	1.000000000000000e+00
	9.999999999999998e-01

 73	5.204951199999995e-05
	1.000000000000000e+00
	9.999999999999998e-01

 74	5.304951199999995e-05
	1.000000000000000e+00
	9.999999999999998e-01

 75	5.404951199999994e-05
	1.000000000000000e+00
	9.999999999999998e-01

 76	5.504951199999994e-05
	1.000000000000000e+00
	9.999999999999998e-01

 77	5.604951199999994e-05
	1.000000000000000e+00
	9.999999999999998e-01

 78	5.704951199999993e-05
	1.000000000000000e+00
	9.999999999999998e-01

 79	5.804951199999993e-05
	1.000000000000000e+00
	9.999999999999998e-01

 80	5.904951199999993e-05
	1.000000000000000e+00
	9.999999999999998e-01

 81	6.004951199999993e-05
	1.000000000000000e+00
	9.999999999999998e-01

 82	6.104951199999992e-05
	1.000000000000000e+00
	9.999999999999998e-01

 83	6.204951199999992e-05
	1.000000000000000e+00
	9.999999999999998e-01

 84	6.304951199999992e-05
	1.000000000000000e+00
	9.999999999999998e-01

 85	6.404951199999992e-05
	1.000000000000000e+00
	9.999999999999998e-01

 86	6.504951199999991e-05
	1.000000000000000e+00
	9.999999999999998e-01

 87	6.604951199999991e-05
	1.000000000000000e+00
	9.999999999999998e-01

 88	6.704951199999991e-05
	1.000000000000000e+00
	9.999999999999998e-01

 89	6.804951199999990e-05
	1.000000000000000e+00
	9.999999999999998e-01

 90	6.904951199999990e-05
	1.000000000000000e+00
	9.999999999999998e-01

 91	7.004951199999990e-05
	1.000000000000000e+00
	9.999999999999998e-01

 92	7.104951199999990e-05
	1.000000000000000e+00
	9.999999999999998e-01

 93	7.204951199999989e-05
	1.000000000000000e+00
	9.999999999999998e-01

 94	7.304951199999989e-05
	1.000000000000000e+00
	9.999999999999998e-01

 95	7.404951199999989e-05
	1.000000000000000e+00
	9.999999999999998e-01

 96	7.504951199999988e-05
	1.000000000000000e+00
	9.999999999999998e-01

 97	7.604951199999988e-05
	1.000000000000000e+00
	9.999999999999998e-01

 98	7.704951199999988e-05
	1.000000000000000e+00
	9.999999999999998e-01

 99	7.804951199999988e-05
	1.000000000000000e+00
	9.999999999999998e-01

 100	7.904951199999987e-05
	1.000000000000000e+00
	9.999999999999998e-01

 101	8.004951199999987e-05
	1.000000000000000e+00
	9.999999999999998e-01

 102	8.104951199999987e-05
	1.000000000000000e+00
	9.999999999999998e-01

 103	8.204951199999987e-05
	1.000000000000000e+00
	9.999999999999998e-01

 104	8.304951199999986e-05
	1.000000000000000e+00
	9.999999999999998e-01

 105	8.404951199999986e-05
	1.000000000000000e+00
	9.999999999999998e-01

 106	8.504951199999986e-05
	1.000000000000000e+00
	9.999999999999998e-01

 107	8.604951199999985e-05
	1.000000000000000e+00
	9.999999999999998e-01

 108	8.704951199999985e-05
	1.000000000000000e+00
	9.999999999999998e-01

 109	8.804951199999985e-05
	1.000000000000000e+00
	9.999999999999998e-01

 110	8.904951199999985e-05
	1.000000000000000e+00
	9.999999999999998e-01

 111	9.004951199999984e-05
	1.000000000000000e+00
	9.999999999999998e-01

 112	9.104951199999984e-05
	1.000000000000000e+00
	9.999999999999998e-01

 113	9.204951199999984e-05
	1.000000000000000e+00
	9.999999999999998e-01

 114	9.304951199999983e-05
	1.000000000000000e+00
	9.999999999999998e-01

 115	9.404951199999983e-05
	1.000000000000000e+00
	9.999999999999998e-01

 116	9.504951199999983e-05
	1.000000000000000e+00
	9.999999999999998e-01

 117	9.604951199999983e-05
	1.000000000000000e+00
	9.999999999999998e-01

 118	9.704951199999982e-05
	1.000000000000000e+00
	9.999999999999998e-01

 119	9.804951199999982e-05
	1.000000000000000e+00
	9.999999999999998e-01

 120	9.904951199999982e-05
	1.000000000000000e+00
	9.999999999999998e-01

 121	1.000495119999998e-04
	1.000000000000000e+00
	9.999999999999998e-01

 122	1.010495119999998e-04
	1.000000000000000e+00
	9.999999999999998e-01

 123	1.020495119999998e-04
	1.000000000000000e+00
	9.999999999999998e-01

 124	1.030495119999998e-04
	1.000000000000000e+00
	9.999999999999998e-01

 125	1.040495119999998e-04
	1.000000000000000e+00
	9.999999999999998e-01

 126	1.050495119999998e-04
	1.000000000000000e+00
	9.999999999999998e-01

 127	1.060495119999998e-04
	1.000000000000000e+00
	9.999999999999998e-01

 128	1.070495119999998e-04
	1.000000000000000e+00
	9.999999999999998e-01

 129	1.080495119999998e-04
	1.000000000000000e+00
	9.999999999999998e-01

 130	1.090495119999998e-04
	1.000000000000000e+00
	9.999999999999998e-01

 131	1.100495119999998e-04
	1.000000000000000e+00
	9.999999999999998e-01

 132	1.110495119999998e-04
	1.000000000000000e+00
	9.999999999999998e-01

 133	1.120495119999998e-04
	1.000000000000000e+00
	9.999999999999998e-01

 134	1.130495119999998e-04
	1.000000000000000e+00
	9.999999999999998e-01

 135	1.140495119999998e-04
	1.000000000000000e+00
	9.999999999999998e-01

 136	1.150495119999998e-04
	1.000000000000000e+00
	9.999999999999998e-01

 137	1.160495119999998e-04
	1.000000000000000e+00
	9.999999999999998e-01

 138	1.170495119999998e-04
	1.000000000000000e+00
	9.999999999999998e-01

 139	1.180495119999998e-04
	1.000000000000000e+00
	9.999999999999998e-01

 140	1.190495119999998e-04
	1.000000000000000e+00
	9.999999999999998e-01

 141	1.200495119999998e-04
	1.000000000000000e+00
	9.999999999999998e-01

 142	1.210495119999998e-04
	1.000000000000000e+00
	9.999999999999998e-01

 143	1.220495119999998e-04
	1.000000000000000e+00
	9.999999999999998e-01

 144	1.230495119999998e-04
	1.000000000000000e+00
	9.999999999999998e-01

 145	1.240495119999998e-04
	1.000000000000000e+00
	9.999999999999998e-01

 146	1.250495119999998e-04
	1.000000000000000e+00
	9.999999999999998e-01

 147	1.260495119999998e-04
	1.000000000000000e+00
	9.999999999999998e-01

 148	1.270495119999998e-04
	1.000000000000000e+00
	9.999999999999998e-01

 149	1.280495119999997e-04
	1.000000000000000e+00
	9.999999999999998e-01

 150	1.290495119999997e-04
	1.000000000000000e+00
	9.999999999999998e-01

 151	1.300495119999997e-04
	1.000000000000000e+00
	9.999999999999998e-01

 152	1.310495119999997e-04
	1.000000000000000e+00
	9.999999999999998e-01

 153	1.320495119999997e-04
	1.000000000000000e+00
	9.999999999999998e-01

 154	1.330495119999997e-04
	1.000000000000000e+00
	9.999999999999998e-01

 155	1.340495119999997e-04
	1.000000000000000e+00
	9.999999999999998e-01

 156	1.350495119999997e-04
	1.000000000000000e+00
	9.999999999999998e-01

 157	1.360495119999997e-04
	1.000000000000000e+00
	9.999999999999998e-01

 158	1.370495119999997e-04
	1.000000000000000e+00
	9.999999999999998e-01

 159	1.380495119999997e-04
	1.000000000000000e+00
	9.999999999999998e-01

 160	1.390495119999997e-04
	1.000000000000000e+00
	9.999999999999998e-01

 161	1.400495119999997e-04
	1.000000000000000e+00
	9.999999999999998e-01

 162	1.410495119999997e-04
	1.000000000000000e+00
	9.999999999999998e-01

 163	1.420495119999997e-04
	1.000000000000000e+00
	9.999999999999998e-01

 164	1.430495119999997e-04
	1.000000000000000e+00
	9.999999999999998e-01

 165	1.440495119999997e-04
	1.000000000000000e+00
	9.999999999999998e-01

 166	1.450495119999997e-04
	1.000000000000000e+00
	9.999999999999998e-01

 167	1.460495119999997e-04
	1.000000000000000e+00
	9.999999999999998e-01

 168	1.470495119999997e-04
	1.000000000000000e+00
	9.999999999999998e-01

 169	1.480495119999997e-04
	1.000000000000000e+00
	9.999999999999998e-01

 170	1.490495119999997e-04
	1.000000000000000e+00
	9.999999999999998e-01

 171	1.500495119999997e-04
	1.000000000000000e+00
	9.999999999999998e-01

 172	1.510495119999997e-04
	1.000000000000000e+00
	9.999999999999998e-01

 173	1.520495119999997e-04
	1.000000000000000e+00
	9.999999999999998e-01

 174	1.530495119999997e-04
	1.000000000000000e+00
	9.999999999999998e-01

 175	1.540495119999997e-04
	1.000000000000000e+00
	9.999999999999998e-01

 176	1.550495119999997e-04
	1.000000000000000e+00
	9.999999999999998e-01

 177	1.560495119999997e-04
	1.000000000000000e+00
	9.999999999999998e-01

 178	1.570495119999997e-04
	1.000000000000000e+00
	9.999999999999998e-01

 179	1.580495119999997e-04
	1.000000000000000e+00
	9.999999999999998e-01

 180	1.590495119999997e-04
	1.000000000000000e+00
	9.999999999999998e-01

 181	1.600495119999997e-04
	1.000000000000000e+00
	9.999999999999998e-01

 182	1.610495119999997e-04
	1.000000000000000e+00
	9.999999999999998e-01

 183	1.620495119999997e-04
	1.000000000000000e+00
	9.999999999999998e-01

 184	1.630495119999997e-04
	1.000000000000000e+00
	9.999999999999998e-01

 185	1.640495119999996e-04
	1.000000000000000e+00
	9.999999999999998e-01

 186	1.650495119999996e-04
	1.000000000000000e+00
	9.999999999999998e-01

 187	1.660495119999996e-04
	1.000000000000000e+00
	9.999999999999998e-01

 188	1.670495119999996e-04
	1.000000000000000e+00
	9.999999999999998e-01

 189	1.680495119999996e-04
	1.000000000000000e+00
	9.999999999999998e-01

 190	1.690495119999996e-04
	1.000000000000000e+00
	9.999999999999998e-01

 191	1.700495119999996e-04
	1.000000000000000e+00
	9.999999999999998e-01

 192	1.710495119999996e-04
	1.000000000000000e+00
	9.999999999999998e-01

 193	1.720495119999996e-04
	1.000000000000000e+00
	9.999999999999998e-01

 194	1.730495119999996e-04
	1.000000000000000e+00
	9.999999999999998e-01

 195	1.740495119999996e-04
	1.000000000000000e+00
	9.999999999999998e-01

 196	1.750495119999996e-04
	1.000000000000000e+00
	9.999999999999998e-01

 197	1.760495119999996e-04
	1.000000000000000e+00
	9.999999999999998e-01

 198	1.770495119999996e-04
	1.000000000000000e+00
	9.999999999999998e-01

 199	1.780495119999996e-04
	1.000000000000000e+00
	9.999999999999998e-01

 200	1.790495119999996e-04
	1.000000000000000e+00
	9.999999999999998e-01

 201	1.800495119999996e-04
	1.000000000000000e+00
	9.999999999999998e-01

 202	1.810495119999996e-04
	1.000000000000000e+00
	9.999999999999998e-01

 203	1.820495119999996e-04
	1.000000000000000e+00
	9.999999999999998e-01

 204	1.830495119999996e-04
	1.000000000000000e+00
	9.999999999999998e-01

 205	1.840495119999996e-04
	1.000000000000000e+00
	9.999999999999998e-01

 206	1.850495119999996e-04
	1.000000000000000e+00
	9.999999999999998e-01

 207	1.860495119999996e-04
	1.000000000000000e+00
	9.999999999999998e-01

 208	1.870495119999996e-04
	1.000000000000000e+00
	9.999999999999998e-01

 209	1.880495119999996e-04
	1.000000000000000e+00
	9.999999999999998e-01

 210	1.890495119999996e-04
	1.000000000000000e+00
	9.999999999999998e-01

 211	1.900495119999996e-04
	1.000000000000000e+00
	9.999999999999998e-01

 212	1.910495119999996e-04
	1.000000000000000e+00
	9.999999999999998e-01

 213	1.920495119999996e-04
	1.000000000000000e+00
	9.999999999999998e-01

 214	1.930495119999996e-04
	1.000000000000000e+00
	9.999999999999998e-01

 215	1.940495119999996e-04
	1.000000000000000e+00
	9.999999999999998e-01

 216	1.950495119999996e-04
	1.000000000000000e+00
	9.999999999999998e-01

 217	1.960495119999996e-04
	1.000000000000000e+00
	9.999999999999998e-01

 218	1.970495119999996e-04
	1.000000000000000e+00
	9.999999999999998e-01

 219	1.980495119999996e-04
	1.000000000000000e+00
	9.999999999999998e-01

 220	1.990495119999996e-04
	1.000000000000000e+00
	9.999999999999998e-01

 221	2.000495119999995e-04
	1.000000000000000e+00
	9.999999999999998e-01

 222	2.010495119999995e-04
	1.000000000000000e+00
	9.999999999999998e-01

 223	2.020495119999995e-04
	1.000000000000000e+00
	9.999999999999998e-01

 224	2.030495119999995e-04
	1.000000000000000e+00
	9.999999999999998e-01

 225	2.040495119999995e-04
	1.000000000000000e+00
	9.999999999999998e-01

 226	2.050495119999995e-04
	1.000000000000000e+00
	9.999999999999998e-01

 227	2.060495119999995e-04
	1.000000000000000e+00
	9.999999999999998e-01

 228	2.070495119999995e-04
	1.000000000000000e+00
	9.999999999999998e-01

 229	2.080495119999995e-04
	1.000000000000000e+00
	9.999999999999998e-01

 230	2.090495119999995e-04
	1.000000000000000e+00
	9.999999999999998e-01

 231	2.100495119999995e-04
	1.000000000000000e+00
	9.999999999999998e-01

 232	2.110495119999995e-04
	1.000000000000000e+00
	9.999999999999998e-01

 233	2.120495119999995e-04
	1.000000000000000e+00
	9.999999999999998e-01

 234	2.130495119999995e-04
	1.000000000000000e+00
	9.999999999999998e-01

 235	2.140495119999995e-04
	1.000000000000000e+00
	9.999999999999998e-01

 236	2.150495119999995e-04
	1.000000000000000e+00
	9.999999999999998e-01

 237	2.160495119999995e-04
	1.000000000000000e+00
	9.999999999999998e-01

 238	2.170495119999995e-04
	1.000000000000000e+00
	9.999999999999998e-01

 239	2.180495119999995e-04
	1.000000000000000e+00
	9.999999999999998e-01

 240	2.190495119999995e-04
	1.000000000000000e+00
	9.999999999999998e-01

 241	2.200495119999995e-04
	1.000000000000000e+00
	9.999999999999998e-01

 242	2.210495119999995e-04
	1.000000000000000e+00
	9.999999999999998e-01

 243	2.220495119999995e-04
	1.000000000000000e+00
	9.999999999999998e-01

 244	2.230495119999995e-04
	1.000000000000000e+00
	9.999999999999998e-01

 245	2.240495119999995e-04
	1.000000000000000e+00
	9.999999999999998e-01

 246	2.250495119999995e-04
	1.000000000000000e+00
	9.999999999999998e-01

 247	2.260495119999995e-04
	1.000000000000000e+00
	9.999999999999998e-01

 248	2.270495119999995e-04
	1.000000000000000e+00
	9.999999999999998e-01

 249	2.280495119999995e-04
	1.000000000000000e+00
	9.999999999999998e-01

 250	2.290495119999995e-04
	1.000000000000000e+00
	9.999999999999998e-01

 251	2.300495119999995e-04
	1.000000000000000e+00
	9.999999999999998e-01

 252	2.310495119999995e-04
	1.000000000000000e+00
	9.999999999999998e-01

 253	2.320495119999995e-04
	1.000000000000000e+00
	9.999999999999998e-01

 254	2.330495119999995e-04
	1.000000000000000e+00
	9.999999999999998e-01

 255	2.340495119999995e-04
	1.000000000000000e+00
	9.999999999999998e-01

 256	2.350495119999995e-04
	1.000000000000000e+00
	9.999999999999998e-01

 257	2.360495119999994e-04
	1.000000000000000e+00
	9.999999999999998e-01

 258	2.370495119999994e-04
	1.000000000000000e+00
	9.999999999999998e-01

 259	2.380495119999994e-04
	1.000000000000000e+00
	9.999999999999998e-01

 260	2.390495119999994e-04
	1.000000000000000e+00
	9.999999999999998e-01

 261	2.400495119999994e-04
	1.000000000000000e+00
	9.999999999999998e-01

 262	2.410495119999994e-04
	1.000000000000000e+00
	9.999999999999998e-01

 263	2.420495119999994e-04
	1.000000000000000e+00
	9.999999999999998e-01

 264	2.430495119999994e-04
	1.000000000000000e+00
	9.999999999999998e-01

 265	2.440495119999994e-04
	1.000000000000000e+00
	9.999999999999998e-01

 266	2.450495119999994e-04
	1.000000000000000e+00
	9.999999999999998e-01

 267	2.460495119999994e-04
	1.000000000000000e+00
	9.999999999999998e-01

